Using: /usr/local/apps/meta/96/pa/hspice
 ******  H S P I C E  --    96.3.1 (961009) 13:48:54  98/03/21    pa           
  Copyright (C) 1985-1996 by Meta-Software,Inc.                                
  Unpublished-rights reserved under US copyright laws.
  This program is protected by law and is subject to the 
  terms and conditions of the license agreement found in:
    /usr/local/apps/meta/96/license.txt
  Use of this program is your acceptance to be bound by this 
  license agreement. Hspice and Meta-Software are trademarks 
  of Meta-Software,Inc.
  Input File: bjtamp.sp                                               
           
 lic:  
 lic: FLEXlm  USER:moon  HOSTNAME:holmes  HOSTID:781bc326  PID:24939 
 lic: Using FLEXlm license file: 
 lic: /usr/local/apps/meta/96/license.dat 
 lic: Checkout hspice;  Encryption code: 9C725BEB7C13293D1DED 
 lic: Notice: SITE OREGON_STATE_U 3200 970627 WORK ORDER# 85702 
 lic: License/Maintenance for hspice will expire on 30-jun-98/1998.0630 
 lic: 1(in_use)/50 FLOATING license(s) on SERVER guille 
 lic:   
 Init: read install configuration file: /usr/local/apps/meta/96/meta.cfg
 Init: hspice initialization file: /usr/local/apps/meta/96/hspice.ini
 ******  
 bjt example (ece 322 spice assignment)                                        
                                                                               
 ******  
 * reading file:  /usr/local/apps/meta/96/hspice.ini
  
 .option        $ the options are listed below:
 + ingold=1     $ use fixed-point and exponential form on output
 + numdgt=4     $ print 4 digits
  
 .inc /ufs2/m/moon/ece323/npn322.inc
 * a bjt model for ece 322
 .model npn322 npn  is=1e-14 bf=100 va=100
 + cje=20p cjc=10p
  
  
 vcc    vcc     0      =12.0
 q1     c       b       e       npn322
 rb1    vcc     b     2.1k
 rb2    b      0     300
 rc     vcc     c    100
 re1    e       e1    9.5
 re2    e1      0    6.5
 cout   e1      0    63u
 cin    vi     b    1u
 vin    vi      0       ac=1 sin 0 amp 100k 0 0 180
  
 .op
  
 .ac dec 10 1 1g
 .net v(c) vin
 .print ac vdb(c)
  
 .measure ac a0 find vr(c) at=100k              $ measure the gain at 10khz.
 .measure ac adb find vdb(c) at=100k            $ measure the gain at 10khz.
 .measure ac mzi find par('v(vi)/i(vin)') at=100k $ measure the input impe
 .measure ac mzo find zout(m) at=100k           $ measure the out. imp. @10khz.
 .measure ac fl when vm(c)='.707*abs(a0)'       $ find the lower 3db frequency.
 .measure ac fu when vm(c)='.707*abs(a0)' td=1e5        $ find the upper 3db frequency.
  
 .tran .1u 20u sweep amp points 2 110m 500m
 .print tran v(c)
  
 .end
1 ******  H S P I C E  --    96.3.1 (961009) 13:48:54  98/03/21    pa           
 ******  
 bjt example (ece 322 spice assignment)                                        
  ******  bjt   model parameters           tnom=  25.000 temp=  25.000         
 ******  

 ************************************************************************
 *** bjt model parameters   model name:   0:npn322   model type:npn   ***
 ************************************************************************

     names  values   units     names  values   units     names  values   units
     -----  ------   -----     -----  ------   -----     -----  ------   -----

   1*** basic dc parameters ***
    level=   1.00                bf= 100.00                br=   1.00         
      brs=   0.                bulk=  gnd                  is=  10.00f amps   
      iss=   0.    amps          nf=   1.00                nr=   1.00         
       ns=   1.00               ibe=   0.    amps         ibc=   0.    amps   
     subs=   1.00             expli=   0.    amps     

   2*** low current beta degradation effect parameters ***
      isc=   0.    amps         ise=   0.    amps          nc=   2.00         
       ne=   1.50           

   3*** base width modulation parameters ***
      vaf= 100.00  volts        var=   0.    volts    

   4*** high current beta degradation effect parameters ***
      ikf=   0.    amps         nkf= 500.00m              ikr=   0.    amps   

   5*** parasitic resistor parameters ***
      irb=   0.    amps          rb=   0.    ohms         rbm=   0.    ohms   
       re=   0.    ohms          rc=   0.    ohms          vo=   0.    volts  
    gamma=   0.             

   6*** junction capacitor parameters ***
     cbcp=   0.    farad       cbep=   0.    farad       ccsp=   0.    farad  
      cjc=  10.00p farad        cje=  20.00p farad        cjs=   0.    farad  
       fc= 500.00m              mjc= 330.00m              mje= 330.00m        
      mjs= 500.00m              vjc= 750.00m volts        vje= 750.00m volts  
      vjs= 750.00m volts       xcjc=   1.00               qco=   0.    coul   

   7*** transit time parameters ***
      itf=   0.    amps         ptf=   0.    deg k         tf=   0.    secs   
       tr=   0.    secs         vtf=   0.                 xtf=   0.           

   8*** temperature compensation parameters ***
     tlev=   0.               tlevc=   0.                tre1=   0.    /deg   
     tre2=   0.    /deg2       trb1=   0.    /deg        trc1=   0.    /deg   
     trb2=   0.    /deg2       trm1=   0.    /deg         xtb=   0.           
     trm2=   0.    /deg2        xti=   3.00               cte=   0.    /deg   
      ctc=   0.    /deg         cts=   0.    /deg        trc2=   0.    /deg2  
     tref=  25.00   deg c       bex=   2.42              bexv=   1.90         

   9*** noise parameters ***
       kf=   0.                  af=   1.00           
1 ******  H S P I C E  --    96.3.1 (961009) 13:48:54  98/03/21    pa           
 ******  
 bjt example (ece 322 spice assignment)                                        
  ******  operating point information      tnom=  25.000 temp=  25.000         
 ******  
 ***** operating point status is all       simulation time is     0.     
    node    =voltage      node    =voltage      node    =voltage   


 +0:b       =   1.4000  0:c       =   7.9400  0:e       =   0.6557 
 +0:e1      =   0.2664  0:vcc     =  12.0000  0:vi      = 1.347e-17




 ****  voltage sources


 subckt                         
 element  0:vcc      0:vin      
  volts     12.0000   1.347e-17 
  current -4.565e-02    0.      
  power      0.5478     0.      





     total voltage source power dissipation=    0.5478        watts

 **** resistors


 subckt                                                          
 element  0:rb1      0:rb2      0:rc       0:re1      0:re2      
  r value  2.100e+03  300.0000   100.0000     9.5000     6.5000  
  v drop    10.6000     1.4000     4.0600     0.3893     0.2664  
  current  5.048e-03  4.667e-03  4.060e-02  4.098e-02  4.098e-02 
  power    5.351e-02  6.533e-03    0.1648   1.596e-02  1.092e-02 




 **** bipolar junction transistors


 subckt              
 element  0:q1       
 model    0:npn322   
  ib       3.811e-04 
  ic       4.060e-02 
  vbe        0.7443  
  vce        7.2843  
  vbc       -6.5400  
  vs        -7.9400  
  power      0.2960  
  betad    106.5400  
  gm         1.5799  
  rpi       67.4184  
  rx         0.      
  ro       2.624e+03 
  cpi      2.655e-11 
  cmu      4.721e-12 
  cbx        0.      
  ccs        0.      
  betaac   106.5143  
  ft       8.041e+09 




**warning** measure results may be incorrect
       since initial start time is non-zero.

**warning** measure results may be incorrect
       since initial start time is non-zero.

**warning** measure results may be incorrect
       since initial start time is non-zero.

**warning** measure results may be incorrect
       since initial start time is non-zero.

**warning** measure results may be incorrect
       since initial start time is non-zero.

**warning** measure results may be incorrect
       since initial start time is non-zero.
 ******  
 bjt example (ece 322 spice assignment)                                        
  ******  ac analysis                      tnom=  25.000 temp=  25.000         
 ******  
x
 
        freq    volt db     
                     c      
    1.00000     -41.4060    
    1.25893     -39.4060    
    1.58489     -37.4060    
    1.99526     -35.4060    
    2.51189     -33.4060    
    3.16228     -31.4059    
    3.98107     -29.4059    
    5.01187     -27.4059    
    6.30957     -25.4058    
    7.94328     -23.4056    
   10.00000     -21.4054    
   12.58925     -19.4051    
   15.84893     -17.4046    
   19.95262     -15.4037    
   25.11886     -13.4024    
   31.62278     -11.4004    
   39.81072      -9.3972    
   50.11872      -7.3921    
   63.09573      -5.3843    
   79.43282      -3.3725    
  100.00000      -1.3547    
  125.89254       0.6708    
  158.48932       2.7053    
  199.52623       4.7474    
  251.18864       6.7885    
  316.22777       8.8078    
  398.10717      10.7666    
  501.18723      12.6092    
  630.95734      14.2721    
  794.32823      15.7002    
  1.0000e+03     16.8625    
  1.2589e+03     17.7590    
  1.5848e+03     18.4169    
  1.9952e+03     18.8799    
  2.5118e+03     19.1950    
  3.1622e+03     19.4043    
  3.9810e+03     19.5409    
  5.0118e+03     19.6289    
  6.3095e+03     19.6853    
  7.9432e+03     19.7212    
  1.0000e+04     19.7439    
  1.2589e+04     19.7584    
  1.5848e+04     19.7675    
  1.9952e+04     19.7733    
  2.5118e+04     19.7769    
  3.1622e+04     19.7792    
  3.9810e+04     19.7806    
  5.0118e+04     19.7816    
  6.3095e+04     19.7821    
  7.9432e+04     19.7825    
  1.0000e+05     19.7827    
  1.2589e+05     19.7829    
  1.5848e+05     19.7830    
  1.9952e+05     19.7830    
  2.5118e+05     19.7831    
  3.1622e+05     19.7831    
  3.9810e+05     19.7831    
  5.0118e+05     19.7831    
  6.3095e+05     19.7831    
  7.9432e+05     19.7831    
  1.0000e+06     19.7831    
  1.2589e+06     19.7831    
  1.5848e+06     19.7830    
  1.9952e+06     19.7830    
  2.5118e+06     19.7829    
  3.1622e+06     19.7827    
  3.9810e+06     19.7825    
  5.0118e+06     19.7822    
  6.3095e+06     19.7816    
  7.9432e+06     19.7808    
  1.0000e+07     19.7794    
  1.2589e+07     19.7772    
  1.5848e+07     19.7737    
  1.9952e+07     19.7682    
  2.5118e+07     19.7595    
  3.1622e+07     19.7458    
  3.9810e+07     19.7241    
  5.0118e+07     19.6900    
  6.3095e+07     19.6365    
  7.9432e+07     19.5530    
  1.0000e+08     19.4241    
  1.2589e+08     19.2275    
  1.5848e+08     18.9336    
  1.9952e+08     18.5066    
  2.5118e+08     17.9086    
  3.1622e+08     17.1090    
  3.9810e+08     16.0949    
  5.0118e+08     14.8787    
  6.3095e+08     13.4967    
  7.9432e+08     12.0025    
  1.0000e+09     10.4581    
y
   a0              = -9.7525E+00
   adb             =  1.9783E+01
   mzi             =  2.0995E+02
   mzo             =  9.9724E+01
   fl              =  9.8273E+02
   fu              =  3.4461E+08
1 ******  H S P I C E  --    96.3.1 (961009) 13:48:54  98/03/21    pa           
 ******  
 bjt example (ece 322 spice assignment)                                        
  ******  transient analysis               tnom=  25.000 temp=  25.000         
 ******  

   *** parameter amp              =    1.100E-01 ***

    node    =voltage      node    =voltage      node    =voltage   


 +0:b       =   1.4000  0:c       =   7.9400  0:e       =   0.6557 
 +0:e1      =   0.2664  0:vcc     =  12.0000  0:vi      = 1.347e-17



 ******  
 bjt example (ece 322 spice assignment)                                        
  ******  transient analysis               tnom=  25.000 temp=  25.000         
 ******  
x
 
        time    voltage     
                     c      
    0.            7.9400    
  1.0000e-07      8.0069    
  2.0000e-07      8.0731    
  3.0000e-07      8.1383    
  4.0000e-07      8.2035    
  5.0000e-07      8.2688    
  6.0000e-07      8.3304    
  7.0000e-07      8.3884    
  8.0000e-07      8.4464    
  9.0000e-07      8.5044    
  1.0000e-06      8.5624    
  1.1000e-06      8.6139    
  1.2000e-06      8.6587    
  1.3000e-06      8.7036    
  1.4000e-06      8.7484    
  1.5000e-06      8.7933    
  1.6000e-06      8.8295    
  1.7000e-06      8.8569    
  1.8000e-06      8.8844    
  1.9000e-06      8.9119    
  2.0000e-06      8.9394    
  2.1000e-06      8.9570    
  2.2000e-06      8.9646    
  2.3000e-06      8.9722    
  2.4000e-06      8.9799    
  2.5000e-06      8.9875    
  2.6000e-06      8.9848    
  2.7000e-06      8.9719    
  2.8000e-06      8.9589    
  2.9000e-06      8.9460    
  3.0000e-06      8.9331    
  3.1000e-06      8.9104    
  3.2000e-06      8.8781    
  3.3000e-06      8.8458    
  3.4000e-06      8.8134    
  3.5000e-06      8.7811    
  3.6000e-06      8.7406    
  3.7000e-06      8.6918    
  3.8000e-06      8.6431    
  3.9000e-06      8.5943    
  4.0000e-06      8.5456    
  4.1000e-06      8.4909    
  4.2000e-06      8.4304    
  4.3000e-06      8.3698    
  4.4000e-06      8.3092    
  4.5000e-06      8.2486    
  4.6000e-06      8.1851    
  4.7000e-06      8.1185    
  4.8000e-06      8.0520    
  4.9000e-06      7.9854    
  5.0000e-06      7.9189    
  5.1000e-06      7.8526    
  5.2000e-06      7.7866    
  5.3000e-06      7.7206    
  5.4000e-06      7.6545    
  5.5000e-06      7.5885    
  5.6000e-06      7.5261    
  5.7000e-06      7.4671    
  5.8000e-06      7.4082    
  5.9000e-06      7.3493    
  6.0000e-06      7.2904    
  6.1000e-06      7.2380    
  6.2000e-06      7.1920    
  6.3000e-06      7.1461    
  6.4000e-06      7.1002    
  6.5000e-06      7.0543    
  6.6000e-06      7.0171    
  6.7000e-06      6.9888    
  6.8000e-06      6.9605    
  6.9000e-06      6.9322    
  7.0000e-06      6.9038    
  7.1000e-06      6.8858    
  7.2000e-06      6.8779    
  7.3000e-06      6.8700    
  7.4000e-06      6.8622    
  7.5000e-06      6.8543    
  7.6000e-06      6.8571    
  7.7000e-06      6.8705    
  7.8000e-06      6.8839    
  7.9000e-06      6.8972    
  8.0000e-06      6.9106    
  8.1000e-06      6.9340    
  8.2000e-06      6.9673    
  8.3000e-06      7.0006    
  8.4000e-06      7.0339    
  8.5000e-06      7.0671    
  8.6000e-06      7.1087    
  8.7000e-06      7.1586    
  8.8000e-06      7.2084    
  8.9000e-06      7.2583    
  9.0000e-06      7.3081    
  9.1000e-06      7.3637    
  9.2000e-06      7.4251    
  9.3000e-06      7.4865    
  9.4000e-06      7.5479    
  9.5000e-06      7.6093    
  9.6000e-06      7.6734    
  9.7000e-06      7.7402    
  9.8000e-06      7.8070    
  9.9000e-06      7.8738    
  1.0000e-05      7.9407    
  1.0100e-05      8.0069    
  1.0200e-05      8.0725    
  1.0300e-05      8.1381    
  1.0400e-05      8.2037    
  1.0500e-05      8.2693    
  1.0600e-05      8.3312    
  1.0700e-05      8.3892    
  1.0800e-05      8.4472    
  1.0900e-05      8.5052    
  1.1000e-05      8.5632    
  1.1100e-05      8.6146    
  1.1200e-05      8.6595    
  1.1300e-05      8.7043    
  1.1400e-05      8.7492    
  1.1500e-05      8.7940    
  1.1600e-05      8.8302    
  1.1700e-05      8.8577    
  1.1800e-05      8.8852    
  1.1900e-05      8.9127    
  1.2000e-05      8.9402    
  1.2100e-05      8.9578    
  1.2200e-05      8.9654    
  1.2300e-05      8.9730    
  1.2400e-05      8.9806    
  1.2500e-05      8.9882    
  1.2600e-05      8.9856    
  1.2700e-05      8.9726    
  1.2800e-05      8.9597    
  1.2900e-05      8.9467    
  1.3000e-05      8.9338    
  1.3100e-05      8.9112    
  1.3200e-05      8.8788    
  1.3300e-05      8.8465    
  1.3400e-05      8.8142    
  1.3500e-05      8.7818    
  1.3600e-05      8.7413    
  1.3700e-05      8.6926    
  1.3800e-05      8.6438    
  1.3900e-05      8.5951    
  1.4000e-05      8.5463    
  1.4100e-05      8.4917    
  1.4200e-05      8.4311    
  1.4300e-05      8.3705    
  1.4400e-05      8.3100    
  1.4500e-05      8.2494    
  1.4600e-05      8.1858    
  1.4700e-05      8.1193    
  1.4800e-05      8.0527    
  1.4900e-05      7.9862    
  1.5000e-05      7.9196    
  1.5100e-05      7.8533    
  1.5200e-05      7.7873    
  1.5300e-05      7.7213    
  1.5400e-05      7.6553    
  1.5500e-05      7.5893    
  1.5600e-05      7.5268    
  1.5700e-05      7.4679    
  1.5800e-05      7.4090    
  1.5900e-05      7.3501    
  1.6000e-05      7.2912    
  1.6100e-05      7.2387    
  1.6200e-05      7.1928    
  1.6300e-05      7.1469    
  1.6400e-05      7.1009    
  1.6500e-05      7.0550    
  1.6600e-05      7.0179    
  1.6700e-05      6.9896    
  1.6800e-05      6.9613    
  1.6900e-05      6.9329    
  1.7000e-05      6.9046    
  1.7100e-05      6.8865    
  1.7200e-05      6.8787    
  1.7300e-05      6.8708    
  1.7400e-05      6.8629    
  1.7500e-05      6.8551    
  1.7600e-05      6.8578    
  1.7700e-05      6.8712    
  1.7800e-05      6.8846    
  1.7900e-05      6.8980    
  1.8000e-05      6.9114    
  1.8100e-05      6.9347    
  1.8200e-05      6.9680    
  1.8300e-05      7.0013    
  1.8400e-05      7.0346    
  1.8500e-05      7.0679    
  1.8600e-05      7.1095    
  1.8700e-05      7.1593    
  1.8800e-05      7.2092    
  1.8900e-05      7.2590    
  1.9000e-05      7.3089    
  1.9100e-05      7.3645    
  1.9200e-05      7.4259    
  1.9300e-05      7.4873    
  1.9400e-05      7.5487    
  1.9500e-05      7.6100    
  1.9600e-05      7.6741    
  1.9700e-05      7.7409    
  1.9800e-05      7.8076    
  1.9900e-05      7.8744    
  2.0000e-05      7.9411    
y
1 ******  H S P I C E  --    96.3.1 (961009) 13:48:54  98/03/21    pa           
 ******  
 bjt example (ece 322 spice assignment)                                        
  ******  transient analysis               tnom=  25.000 temp=  25.000         
 ******  

   *** parameter amp              =    5.000E-01 ***

    node    =voltage      node    =voltage      node    =voltage   


 +0:b       =   1.4000  0:c       =   7.9400  0:e       =   0.6557 
 +0:e1      =   0.2664  0:vcc     =  12.0000  0:vi      = 6.123e-17



 ******  
 bjt example (ece 322 spice assignment)                                        
  ******  transient analysis               tnom=  25.000 temp=  25.000         
 ******  
x
 
        time    voltage     
                     c      
    0.            7.9400    
  1.0000e-07      8.2433    
  2.0000e-07      8.5410    
  3.0000e-07      8.8322    
  4.0000e-07      9.1234    
  5.0000e-07      9.4146    
  6.0000e-07      9.6833    
  7.0000e-07      9.9294    
  8.0000e-07     10.1755    
  9.0000e-07     10.4217    
  1.0000e-06     10.6678    
  1.1000e-06     10.8717    
  1.2000e-06     11.0332    
  1.3000e-06     11.1948    
  1.4000e-06     11.3564    
  1.5000e-06     11.5180    
  1.6000e-06     11.6291    
  1.7000e-06     11.6897    
  1.8000e-06     11.7503    
  1.9000e-06     11.8110    
  2.0000e-06     11.8716    
  2.1000e-06     11.9111    
  2.2000e-06     11.9275    
  2.3000e-06     11.9379    
  2.4000e-06     11.9352    
  2.5000e-06     11.9326    
  2.6000e-06     11.9299    
  2.7000e-06     11.9272    
  2.8000e-06     11.9246    
  2.9000e-06     11.9058    
  3.0000e-06     11.8780    
  3.1000e-06     11.8204    
  3.2000e-06     11.7360    
  3.3000e-06     11.6516    
  3.4000e-06     11.5673    
  3.5000e-06     11.4829    
  3.6000e-06     11.3474    
  3.7000e-06     11.1606    
  3.8000e-06     10.9737    
  3.9000e-06     10.7869    
  4.0000e-06     10.6001    
  4.1000e-06     10.3757    
  4.2000e-06     10.1137    
  4.3000e-06      9.8518    
  4.4000e-06      9.5898    
  4.5000e-06      9.3278    
  4.6000e-06      9.0467    
  4.7000e-06      8.7466    
  4.8000e-06      8.4465    
  4.9000e-06      8.1464    
  5.0000e-06      7.8463    
  5.1000e-06      7.5449    
  5.2000e-06      7.2423    
  5.3000e-06      6.9396    
  5.4000e-06      6.6370    
  5.5000e-06      6.3344    
  5.6000e-06      6.0471    
  5.7000e-06      5.7751    
  5.8000e-06      5.5030    
